Freq.	Vn002/Vn003(dB, phi)
1.00000000000000e-003	5.32552886474315e-001	8.91955916484791e+001
1.00230523807790e-003	5.52548975716517e-001	8.91937375365312e+001
1.00461579027840e-003	5.72545046880387e-001	8.91918791520023e+001
1.00693166885180e-003	5.92541099956435e-001	8.91900164851596e+001
1.00925288607668e-003	6.12537134803774e-001	8.91881495261758e+001
1.01157945425990e-003	6.32533151295677e-001	8.91862782650984e+001
1.01391138573668e-003	6.52529149499053e-001	8.91844026919835e+001
1.01624869287070e-003	6.72525129191652e-001	8.91825227969976e+001
1.01859138805412e-003	6.92521090320190e-001	8.91806385700993e+001
1.02093948370768e-003	7.12517032806200e-001	8.91787500014090e+001
1.02329299228075e-003	7.32512956594042e-001	8.91768570808478e+001
1.02565192625141e-003	7.52508861554477e-001	8.91749597984391e+001
1.02801629812647e-003	7.72504747556493e-001	8.91730581441300e+001
1.03038612044162e-003	7.92500614703194e-001	8.91711521078729e+001
1.03276140576140e-003	8.12496462691335e-001	8.91692416795622e+001
1.03514216667934e-003	8.32492291522013e-001	8.91673268490477e+001
1.03752841581801e-003	8.52488101120425e-001	8.91654076062458e+001
1.03992016582906e-003	8.72483891359835e-001	8.91634839410471e+001
1.04231742939330e-003	8.92479662202334e-001	8.91615558431197e+001
1.04472021922080e-003	9.12475413556483e-001	8.91596233023412e+001
1.04712854805090e-003	9.32471145231256e-001	8.91576863085470e+001
1.04954242865232e-003	9.52466857215601e-001	8.91557448514338e+001
1.05196187382322e-003	9.72462549443885e-001	8.91537989206639e+001
1.05438689639126e-003	9.92458221818846e-001	8.91518485060057e+001
1.05681750921366e-003	1.01245387418880e+000	8.91498935970702e+001
1.05925372517729e-003	1.03244950643927e+000	8.91479341836311e+001
1.06169555719872e-003	1.05244511865338e+000	8.91459702552660e+001
1.06414301822431e-003	1.07244071053604e+000	8.91440018015050e+001
1.06659612123026e-003	1.09243628210304e+000	8.91420288120480e+001
1.06905487922266e-003	1.11243183322179e+000	8.91400512762891e+001
1.07151930523760e-003	1.13242736383883e+000	8.91380691839127e+001
1.07398941234124e-003	1.15242287375239e+000	8.91360825243960e+001
1.07646521362983e-003	1.17241836304340e+000	8.91340912872195e+001
1.07894672222983e-003	1.19241383143923e+000	8.91320954617969e+001
1.08143395129794e-003	1.21240927899318e+000	8.91300950376122e+001
1.08392691402120e-003	1.23240470547333e+000	8.91280900040424e+001
1.08642562361706e-003	1.25240011090348e+000	8.91260803505543e+001
1.08893009333343e-003	1.27239549511236e+000	8.91240660664206e+001
1.09144033644875e-003	1.29239085804743e+000	8.91220471410975e+001
1.09395636627209e-003	1.31238619952866e+000	8.91200235637613e+001
1.09647819614318e-003	1.33238151953756e+000	8.91179953238088e+001
1.09900583943252e-003	1.35237681797160e+000	8.91159624104537e+001
1.10153930954141e-003	1.37237209462200e+000	8.91139248129447e+001
1.10407861990207e-003	1.39236734954999e+000	8.91118825205154e+001
1.10662378397766e-003	1.41236258257660e+000	8.91098355222769e+001
1.10917481526240e-003	1.43235779359204e+000	8.91077838075245e+001
1.11173172728159e-003	1.45235298248941e+000	8.91057273653364e+001
1.11429453359173e-003	1.47234814920737e+000	8.91036661847807e+001
1.11686324778056e-003	1.49234329366348e+000	8.91016002550374e+001
1.11943788346715e-003	1.51233841568893e+000	8.90995295651864e+001
1.12201845430196e-003	1.53233351513761e+000	8.90974541042112e+001
1.12460497396692e-003	1.55232859203694e+000	8.90953738610948e+001
1.12719745617551e-003	1.57232364623901e+000	8.90932888249503e+001
1.12979591467279e-003	1.59231867753064e+000	8.90911989846378e+001
1.13240036323555e-003	1.61231368595590e+000	8.90891043291304e+001
1.13501081567231e-003	1.63230867136179e+000	8.90870048473844e+001
1.13762728582343e-003	1.65230363359304e+000	8.90849005282077e+001
1.14024978756117e-003	1.67229857255521e+000	8.90827913605747e+001
1.14287833478977e-003	1.69229348821429e+000	8.90806773331744e+001
1.14551294144553e-003	1.71228838038155e+000	8.90785584349833e+001
1.14815362149688e-003	1.73228324901306e+000	8.90764346547387e+001
1.15080038894443e-003	1.75227809393185e+000	8.90743059810786e+001
1.15345325782109e-003	1.77227291508164e+000	8.90721724029926e+001
1.15611224219209e-003	1.79226771231584e+000	8.90700339089037e+001
1.15877735615512e-003	1.81226248552228e+000	8.90678904876959e+001
1.16144861384034e-003	1.83225723464477e+000	8.90657421279622e+001
1.16412602941049e-003	1.85225195953457e+000	8.90635888183657e+001
1.16680961706096e-003	1.87224666007661e+000	8.90614305475029e+001
1.16949939101987e-003	1.89224133610518e+000	8.90592673038821e+001
1.17219536554813e-003	1.91223598767396e+000	8.90570990761596e+001
1.17489755493952e-003	1.93223061447237e+000	8.90549258528803e+001
1.17760597352080e-003	1.95222521653348e+000	8.90527476223415e+001
1.18032063565172e-003	1.97221979364969e+000	8.90505643733142e+001
1.18304155572516e-003	1.99221434576850e+000	8.90483760940624e+001
1.18576874816716e-003	2.01220887276271e+000	8.90461827730109e+001
1.18850222743701e-003	2.03220337445149e+000	8.90439843985995e+001
1.19124200802737e-003	2.05219785078487e+000	8.90417809592035e+001
1.19398810446427e-003	2.07219230163751e+000	8.90395724431398e+001
1.19674053130724e-003	2.09218672689012e+000	8.90373588388564e+001
1.19949930314937e-003	2.11218112640963e+000	8.90351401343904e+001
1.20226443461741e-003	2.13217550008758e+000	8.90329163182532e+001
1.20503594037179e-003	2.15216984780089e+000	8.90306873784446e+001
1.20781383510677e-003	2.17216416944983e+000	8.90284533034129e+001
1.21059813355048e-003	2.19215846485845e+000	8.90262140811421e+001
1.21338885046497e-003	2.21215273395411e+000	8.90239696999619e+001
1.21618600064636e-003	2.23214697664697e+000	8.90217201478156e+001
1.21898959892486e-003	2.25214119268822e+000	8.90194654129397e+001
1.22179966016487e-003	2.27213538211159e+000	8.90172054833108e+001
1.22461619926504e-003	2.29212954471098e+000	8.90149403470833e+001
1.22743923115840e-003	2.31212368036119e+000	8.90126699922718e+001
1.23026877081238e-003	2.33211778893725e+000	8.90103944067164e+001
1.23310483322890e-003	2.35211187037233e+000	8.90081135784997e+001
1.23594743344450e-003	2.37210592447981e+000	8.90058274955717e+001
1.23879658653036e-003	2.39209995111141e+000	8.90035361458202e+001
1.24165230759240e-003	2.41209395023475e+000	8.90012395170803e+001
1.24451461177138e-003	2.43208792159818e+000	8.89989375972632e+001
1.24738351424294e-003	2.45208186520249e+000	8.89966303740706e+001
1.25025903021771e-003	2.47207578088688e+000	8.89943178354731e+001
1.25314117494141e-003	2.49206966840941e+000	8.89919999691507e+001
1.25602996369487e-003	2.51206352779591e+000	8.89896767628712e+001
1.25892541179416e-003	2.53205735879454e+000	8.89873482043014e+001
1.26182753459066e-003	2.55205116138055e+000	8.89850142811624e+001
1.26473634747114e-003	2.57204493530983e+000	8.89826749811476e+001
1.26765186585784e-003	2.59203868056365e+000	8.89803302917976e+001
1.27057410520853e-003	2.61203239696104e+000	8.89779802007815e+001
1.27350308101665e-003	2.63202608435232e+000	8.89756246956081e+001
1.27643880881134e-003	2.65201974257930e+000	8.89732637639079e+001
1.27938130415752e-003	2.67201337157080e+000	8.89708973931596e+001
1.28233058265601e-003	2.69200697115089e+000	8.89685255707174e+001
1.28528665994361e-003	2.71200054119048e+000	8.89661482842251e+001
1.28824955169313e-003	2.73199408156952e+000	8.89637655210590e+001
1.29121927361353e-003	2.75198759213812e+000	8.89613772685876e+001
1.29419584144998e-003	2.77198107279179e+000	8.89589835141336e+001
1.29717927098395e-003	2.79197452333841e+000	8.89565842451530e+001
1.30016957803328e-003	2.81196794364947e+000	8.89541794489087e+001
1.30316677845229e-003	2.83196133363969e+000	8.89517691126591e+001
1.30617088813183e-003	2.85195469311653e+000	8.89493532236982e+001
1.30918192299940e-003	2.87194802191164e+000	8.89469317692272e+001
1.31219989901919e-003	2.89194132002852e+000	8.89445047363981e+001
1.31522483219223e-003	2.91193458712060e+000	8.89420721124858e+001
1.31825673855640e-003	2.93192782318001e+000	8.89396338844833e+001
1.32129563418657e-003	2.95192102799662e+000	8.89371900396888e+001
1.32434153519466e-003	2.97191420154817e+000	8.89347405650146e+001
1.32739445772973e-003	2.99190734351852e+000	8.89322854475717e+001
1.33045441797808e-003	3.01190045385113e+000	8.89298246743428e+001
1.33352143216331e-003	3.03189353239758e+000	8.89273582324342e+001
1.33659551654643e-003	3.05188657902856e+000	8.89248861086231e+001
1.33967668742593e-003	3.07187959354082e+000	8.89224082899367e+001
1.34276496113785e-003	3.09187257587607e+000	8.89199247633352e+001
1.34586035405594e-003	3.11186552577496e+000	8.89174355155902e+001
1.34896288259164e-003	3.13185844317572e+000	8.89149405335837e+001
1.35207256319427e-003	3.15185132792334e+000	8.89124398041255e+001
1.35518941235103e-003	3.17184417977001e+000	8.89099333139715e+001
1.35831344658714e-003	3.19183699871652e+000	8.89074210499305e+001
1.36144468246594e-003	3.21182978445429e+000	8.89049029985977e+001
1.36458313658891e-003	3.23182253692149e+000	8.89023791467283e+001
1.36772882559584e-003	3.25181525596119e+000	8.88998494810953e+001
1.37088176616484e-003	3.27180794139411e+000	8.88973139881045e+001
1.37404197501250e-003	3.29180059308760e+000	8.88947726545081e+001
1.37720946889394e-003	3.31179321088493e+000	8.88922254669032e+001
1.38038426460287e-003	3.33178579460522e+000	8.88896724116694e+001
1.38356637897177e-003	3.35177834411267e+000	8.88871134753912e+001
1.38675582887188e-003	3.37177085922837e+000	8.88845486445522e+001
1.38995263121334e-003	3.39176333985280e+000	8.88819779056188e+001
1.39315680294529e-003	3.41175578573721e+000	8.88794012449435e+001
1.39636836105593e-003	3.43174819678115e+000	8.88768186489276e+001
1.39958732257261e-003	3.45174057280404e+000	8.88742301039583e+001
1.40281370456195e-003	3.47173291365019e+000	8.88716355962291e+001
1.40604752412990e-003	3.49172521916950e+000	8.88690351122439e+001
1.40928879842186e-003	3.51171748918412e+000	8.88664286380376e+001
1.41253754462274e-003	3.53170972355550e+000	8.88638161599410e+001
1.41579377995707e-003	3.55170192201209e+000	8.88611976641669e+001
1.41905752168908e-003	3.57169408458010e+000	8.88585731367990e+001
1.42232878712281e-003	3.59168621092744e+000	8.88559425640138e+001
1.42560759360218e-003	3.61167830091519e+000	8.88533059318735e+001
1.42889395851109e-003	3.63167035444088e+000	8.88506632265196e+001
1.43218789927353e-003	3.65166237133587e+000	8.88480144339340e+001
1.43548943335364e-003	3.67165435134839e+000	8.88453595400522e+001
1.43879857825583e-003	3.69164629439774e+000	8.88426985309434e+001
1.44211535152486e-003	3.71163820023436e+000	8.88400313925249e+001
1.44543977074592e-003	3.73163006869397e+000	8.88373581106765e+001
1.44877185354475e-003	3.75162189971279e+000	8.88346786712938e+001
1.45211161758773e-003	3.77161369304071e+000	8.88319930601686e+001
1.45545908058195e-003	3.79160544846023e+000	8.88293012631926e+001
1.45881426027534e-003	3.81159716580300e+000	8.88266032660323e+001
1.46217717445671e-003	3.83158884504803e+000	8.88238990544832e+001
1.46554784095590e-003	3.85158048580394e+000	8.88211886143326e+001
1.46892627764385e-003	3.87157208804369e+000	8.88184719311560e+001
1.47231250243271e-003	3.89156365150276e+000	8.88157489906415e+001
1.47570653327588e-003	3.91155517607869e+000	8.88130197783225e+001
1.47910838816819e-003	3.93154666149811e+000	8.88102842798970e+001
1.48251808514594e-003	3.95153810764820e+000	8.88075424808239e+001
1.48593564228699e-003	3.97152951436002e+000	8.88047943667075e+001
1.48936107771090e-003	3.99152088139315e+000	8.88020399229503e+001
1.49279440957898e-003	4.01151220858256e+000	8.87992791349338e+001
1.49623565609442e-003	4.03150349583670e+000	8.87965119882185e+001
1.49968483550236e-003	4.05149474276318e+000	8.87937384681383e+001
1.50314196609001e-003	4.07148594943382e+000	8.87909585599737e+001
1.50660706618673e-003	4.09147711550410e+000	8.87881722491717e+001
1.51008015416413e-003	4.11146824078399e+000	8.87853795208610e+001
1.51356124843619e-003	4.13145932512147e+000	8.87825803603636e+001
1.51705036745932e-003	4.15145036832226e+000	8.87797747528116e+001
1.52054752973248e-003	4.17144137021284e+000	8.87769626835590e+001
1.52405275379728e-003	4.19143233059321e+000	8.87741441375994e+001
1.52756605823806e-003	4.21142324925139e+000	8.87713191000597e+001
1.53108746168202e-003	4.23141412599529e+000	8.87684875560466e+001
1.53461698279928e-003	4.25140496068382e+000	8.87656494906012e+001
1.53815464030302e-003	4.27139575309903e+000	8.87628048887077e+001
1.54170045294954e-003	4.29138650299362e+000	8.87599537353807e+001
1.54525443953840e-003	4.31137721026469e+000	8.87570960155516e+001
1.54881661891247e-003	4.33136787460516e+000	8.87542317140798e+001
1.55238700995807e-003	4.35135849586640e+000	8.87513608159375e+001
1.55596563160506e-003	4.37134907388466e+000	8.87484833057894e+001
1.55955250282694e-003	4.39133960841672e+000	8.87455991685139e+001
1.56314764264094e-003	4.41133009929696e+000	8.87427083889823e+001
1.56675107010813e-003	4.43132054632756e+000	8.87398109518389e+001
1.57036280433354e-003	4.45131094924661e+000	8.87369068417562e+001
1.57398286446620e-003	4.47130130794532e+000	8.87339960434201e+001
1.57761126969933e-003	4.49129162214130e+000	8.87310785414546e+001
1.58124803927037e-003	4.51128189156487e+000	8.87281543205112e+001
1.58489319246110e-003	4.53127211615922e+000	8.87252233650098e+001
1.58854674859776e-003	4.55126229569240e+000	8.87222856595634e+001
1.59220872705115e-003	4.57125242986686e+000	8.87193411886852e+001
1.59587914723672e-003	4.59124251854899e+000	8.87163899367955e+001
1.59955802861465e-003	4.61123256150739e+000	8.87134318882257e+001
1.60324539069002e-003	4.63122255851918e+000	8.87104670275480e+001
1.60694125301286e-003	4.65121250935603e+000	8.87074953388908e+001
1.61064563517825e-003	4.67120241388769e+000	8.87045168066751e+001
1.61435855682647e-003	4.69119227179457e+000	8.87015314151787e+001
1.61808003764305e-003	4.71118208296100e+000	8.86985391486141e+001
1.62181009735891e-003	4.73117184708141e+000	8.86955399911525e+001
1.62554875575047e-003	4.75116156399179e+000	8.86925339269948e+001
1.62929603263970e-003	4.77115123342865e+000	8.86895209402084e+001
1.63305194789432e-003	4.79114085528259e+000	8.86865010149941e+001
1.63681652142779e-003	4.81113042920992e+000	8.86834741352987e+001
1.64058977319952e-003	4.83111995506460e+000	8.86804402852502e+001
1.64437172321491e-003	4.85110943257039e+000	8.86773994487451e+001
1.64816239152549e-003	4.87109886151334e+000	8.86743516097371e+001
1.65196179822900e-003	4.89108824175562e+000	8.86712967521557e+001
1.65576996346951e-003	4.91107757292503e+000	8.86682348598262e+001
1.65958690743754e-003	4.93106685493086e+000	8.86651659166968e+001
1.66341265037015e-003	4.95105608749212e+000	8.86620899064508e+001
1.66724721255104e-003	4.97104527035743e+000	8.86590068129233e+001
1.67109061431069e-003	4.99103440331969e+000	8.86559166197820e+001
1.67494287602642e-003	5.01102348615607e+000	8.86528193107921e+001
1.67880401812254e-003	5.03101251864320e+000	8.86497148694719e+001
1.68267406107045e-003	5.05100150051191e+000	8.86466032795368e+001
1.68655302538872e-003	5.07099043159299e+000	8.86434845245144e+001
1.69044093164324e-003	5.09097931156954e+000	8.86403585879819e+001
1.69433780044731e-003	5.11096814025206e+000	8.86372254534446e+001
1.69824365246172e-003	5.13095691737553e+000	8.86340851042966e+001
1.70215850839493e-003	5.15094564274240e+000	8.86309375240351e+001
1.70608238900310e-003	5.17093431613634e+000	8.86277826960040e+001
1.71001531509027e-003	5.19092293725002e+000	8.86246206035936e+001
1.71395730750840e-003	5.21091150587113e+000	8.86214512300843e+001
1.71790838715757e-003	5.23090002173854e+000	8.86182745587292e+001
1.72186857498599e-003	5.25088848461311e+000	8.86150905727851e+001
1.72583789199018e-003	5.27087689433369e+000	8.86118992554467e+001
1.72981635921508e-003	5.29086525056169e+000	8.86087005899039e+001
1.73380399775412e-003	5.31085355309253e+000	8.86054945592208e+001
1.73780082874935e-003	5.33084180161443e+000	8.86022811465206e+001
1.74180687339159e-003	5.35082999596157e+000	8.85990603348485e+001
1.74582215292048e-003	5.37081813580472e+000	8.85958321071401e+001
1.74984668862464e-003	5.39080622097238e+000	8.85925964464733e+001
1.75388050184174e-003	5.41079425121352e+000	8.85893533356063e+001
1.75792361395867e-003	5.43078222616813e+000	8.85861027576541e+001
1.76197604641161e-003	5.45077014567506e+000	8.85828446952734e+001
1.76603782068614e-003	5.47075800944946e+000	8.85795791313399e+001
1.77010895831740e-003	5.49074581723619e+000	8.85763060486587e+001
1.77418948089014e-003	5.51073356880921e+000	8.85730254299051e+001
1.77827941003890e-003	5.53072126390156e+000	8.85697372577865e+001
1.78237876744807e-003	5.55070890217829e+000	8.85664415149688e+001
1.78648757485203e-003	5.57069648345531e+000	8.85631381840284e+001
1.79060585403527e-003	5.59068400739704e+000	8.85598272475914e+001
1.79473362683250e-003	5.61067147385802e+000	8.85565086881524e+001
1.79887091512876e-003	5.63065888247286e+000	8.85531824882404e+001
1.80301774085954e-003	5.65064623301054e+000	8.85498486302812e+001
1.80717412601090e-003	5.67063352518299e+000	8.85465070966954e+001
1.81134009261958e-003	5.69062075875333e+000	8.85431578698204e+001
1.81551566277311e-003	5.71060793344035e+000	8.85398009320172e+001
1.81970085860996e-003	5.73059504894558e+000	8.85364362655884e+001
1.82389570231961e-003	5.75058210504648e+000	8.85330638528284e+001
1.82810021614272e-003	5.77056910143559e+000	8.85296836758286e+001
1.83231442237119e-003	5.79055603782621e+000	8.85262957168830e+001
1.83653834334832e-003	5.81054291391329e+000	8.85228999580172e+001
1.84077200146893e-003	5.83052972955726e+000	8.85194963814403e+001
1.84501541917945e-003	5.85051648430716e+000	8.85160849690913e+001
1.84926861897805e-003	5.87050317799599e+000	8.85126657030291e+001
1.85353162341479e-003	5.89048981027701e+000	8.85092385652375e+001
1.85780445509167e-003	5.91047638090116e+000	8.85058035375914e+001
1.86208713666284e-003	5.93046288962321e+000	8.85023606020177e+001
1.86637969083464e-003	5.95044933612327e+000	8.84989097403621e+001
1.87068214036577e-003	5.97043572002004e+000	8.84954509344200e+001
1.87499450806739e-003	5.99042204118334e+000	8.84919841659233e+001
1.87931681680324e-003	6.01040829923729e+000	8.84885094166140e+001
1.88364908948977e-003	6.03039449391243e+000	8.84850266681886e+001
1.88799134909627e-003	6.05038062488928e+000	8.84815359022070e+001
1.89234361864495e-003	6.07036669190053e+000	8.84780371003979e+001
1.89670592121112e-003	6.09035269464148e+000	8.84745302442053e+001
1.90107827992327e-003	6.11033863282000e+000	8.84710153151629e+001
1.90546071796322e-003	6.13032450614375e+000	8.84674922947067e+001
1.90985325856621e-003	6.15031031431913e+000	8.84639611643490e+001
1.91425592502106e-003	6.17029605700055e+000	8.84604219054528e+001
1.91866874067026e-003	6.19028173396841e+000	8.84568744992814e+001
1.92309172891013e-003	6.21026734484736e+000	8.84533189272187e+001
1.92752491319091e-003	6.23025288934901e+000	8.84497551704667e+001
1.93196831701689e-003	6.25023836718131e+000	8.84461832103056e+001
1.93642196394658e-003	6.27022377803632e+000	8.84426030278181e+001
1.94088587759275e-003	6.29020912156371e+000	8.84390146042244e+001
1.94536008162263e-003	6.31019439755995e+000	8.84354179205495e+001
1.94984459975802e-003	6.33017960554015e+000	8.84318129578119e+001
1.95433945577536e-003	6.35016474541458e+000	8.84281996970942e+001
1.95884467350596e-003	6.37014981671241e+000	8.84245781193010e+001
1.96336027683602e-003	6.39013481909447e+000	8.84209482053027e+001
1.96788628970681e-003	6.41011975233841e+000	8.84173099360762e+001
1.97242273611482e-003	6.43010461609058e+000	8.84136632923956e+001
1.97696964011183e-003	6.45008941002700e+000	8.84100082549625e+001
1.98152702580507e-003	6.47007413385166e+000	8.84063448046769e+001
1.98609491735734e-003	6.49005878719942e+000	8.84026729220529e+001
1.99067333898716e-003	6.51004336980547e+000	8.83989925879093e+001
1.99526231496885e-003	6.53002788123697e+000	8.83953037827547e+001
1.99986186963271e-003	6.55001232123462e+000	8.83916064871535e+001
